  can0  005   [8]  00 00 00 00 00 00 00 00
  can0  005   [8]  00 00 00 00 00 00 00 00
  can0  005   [8]  00 01 47 AE FF FE B8 00
  can0  005   [8]  00 02 8F 5C FF FD 70 00
  can0  005   [8]  00 03 D7 0A FF FC 28 00
  can0  005   [8]  00 05 1E B8 FF FA E1 00
  can0  005   [8]  00 06 66 66 FF F9 99 00
  can0  005   [8]  00 07 AE 14 FF F8 51 00
  can0  005   [8]  00 08 F5 C2 FF F7 0A 00
  can0  005   [8]  00 0A 3D 70 FF F5 C2 00
  can0  005   [8]  00 0B 85 1E FF F4 7A 00
  can0  005   [8]  00 0C 2D 59 FF F3 33 00
  can0  005   [8]  00 0C 77 07 FF F2 7E 00
  can0  005   [8]  00 0F 04 5A FF F0 CF 00
  can0  005   [8]  00 0E 5E D9 FF F0 41 00
  can0  005   [8]  00 11 69 28 FF EE 68 00
  can0  005   [8]  00 12 C0 6A FF ED 19 00
  can0  005   [8]  00 14 08 9D FF EC CD 00
  can0  005   [8]  00 15 50 4B FF EA BA 00
  can0  005   [8]  00 16 97 F9 FF E9 68 00
  can0  005   [8]  00 17 DF A7 FF E8 20 00
  can0  005   [8]  00 19 27 55 FF E6 D8 00
  can0  005   [8]  00 18 76 93 FF E7 5A 00
  can0  005   [8]  00 1B 80 88 FF E4 83 00
  can0  005   [8]  00 1C 07 B7 FF E3 28 00
  can0  005   [8]  00 1D F4 07 FF E2 DC 00
  can0  005   [8]  00 1E FB B8 FF E0 C8 00
  can0  005   [8]  00 1F 92 08 FF DF 9D 00
  can0  005   [8]  00 21 58 C6 FF DE 8C 00
  can0  005   [8]  00 21 59 07 FF DD 36 00
  can0  005   [8]  00 23 E2 87 FF DC 59 00
  can0  005   [8]  00 25 35 52 FF DA CF 00
  can0  005   [8]  00 26 7D 60 FF DA 1B 00
  can0  005   [8]  00 27 C5 0E FF D8 68 00
  can0  005   [8]  00 28 E6 A5 FF D8 45 00
  can0  005   [8]  00 29 1E 46 FF D5 E0 00
  can0  005   [8]  00 2A 3F 1F FF D5 49 00
  can0  005   [8]  00 2B 86 CD FF D3 6F 00
  can0  005   [8]  00 2D A2 A4 FF D2 28 00
  can0  005   [8]  00 2E FA FE FF D1 36 00
  can0  005   [8]  00 30 1C 95 FF CF BA 00
  can0  005   [8]  00 31 67 2B FF CE 6F 00
  can0  005   [8]  00 32 B1 C0 FF CE 43 00
  can0  005   [8]  00 33 F9 80 FF CC 22 00
  can0  005   [8]  00 33 48 BD FF CA C0 00
  can0  005   [8]  00 36 52 B3 FF CA 73 00
  can0  005   [8]  00 37 A9 EF FF C8 5F 00
  can0  005   [8]  00 38 F2 22 FF C8 0A 00
  can0  005   [8]  00 39 F4 2B FF C5 F6 00
  can0  005   [8]  00 3B 5A 5D FF C5 38 00
  can0  005   [8]  00 3C 50 C4 FF C3 88 00
  can0  005   [8]  00 3C 4F FF FF C2 AF 00
  can0  005   [8]  00 3E DA BC FF C2 E7 00
  can0  005   [8]  00 3F C9 8B FF C1 54 00
  can0  005   [8]  00 40 7D 5B FF C1 40 00
  can0  005   [8]  00 42 6B 34 FF C1 8D 00
  can0  005   [8]  00 43 19 2A FF C1 67 00
  can0  005   [8]  00 44 D6 3D FF C1 65 00
  can0  005   [8]  00 45 51 EF FF C1 65 00
  can0  005   [8]  00 47 3D D9 FF C1 65 00
  can0  005   [8]  00 48 8B 2F FF C1 65 00
  can0  005   [8]  00 49 D3 09 FF C1 65 00
  can0  005   [8]  00 4B 1A B7 FF C1 65 00
  can0  005   [8]  00 4C 62 65 FF C1 65 00
  can0  005   [8]  00 4C 73 EF FF C1 65 00
  can0  005   [8]  00 4E B5 24 FF C1 65 00
  can0  005   [8]  00 50 12 9B FF C1 65 00
  can0  005   [8]  00 51 15 5C FF C1 65 00
  can0  005   [8]  00 51 AB 86 FF C1 65 00
  can0  005   [8]  00 51 9F DD FF C1 65 00
  can0  005   [8]  00 54 AF 81 FF C3 2F 00
  can0  005   [8]  00 55 A2 EE FF C1 A0 00
  can0  005   [8]  00 57 26 F8 FF C1 8C 00
  can0  005   [8]  00 58 2B 09 FF C1 8C 00
  can0  005   [8]  00 59 91 4E FF C1 8C 00
  can0  005   [8]  00 5A DA 07 FF C1 8C 00
  can0  005   [8]  00 5B A4 F0 FF C1 8C 00
  can0  005   [8]  00 5D 40 59 FF C1 8C 00
  can0  005   [8]  00 5D 54 C4 FF C1 8C 00
  can0  005   [8]  00 5F 96 0C FF C1 8C 00
  can0  005   [8]  00 60 F3 82 FF C1 8C 00
  can0  005   [8]  00 61 D7 EC FF C1 8C 00
  can0  005   [8]  00 63 5B 6B FF C1 8C 00
  can0  005   [8]  00 64 52 D5 FF C1 8C 00
  can0  005   [8]  00 65 C5 4F FF C1 8C 00
  can0  005   [8]  00 66 C8 C1 FF C1 8C 00
  can0  005   [8]  00 66 F8 E2 FF C1 8C 00
  can0  005   [8]  00 69 3B 15 FF C1 8C 00
  can0  005   [8]  00 68 A0 26 FF C1 8C 00
  can0  005   [8]  00 6B AA CE FF C1 8C 00
  can0  005   [8]  00 6C 85 D1 FF C1 8C 00
  can0  005   [8]  00 6D CD 7F FF C1 8C 00
  can0  005   [8]  00 6F 68 EE FF C1 8C 00
  can0  005   [8]  00 70 8D 67 FF C1 8C 00
  can0  005   [8]  00 71 5B CA FF C1 8C 00
  can0  005   [8]  00 73 18 B1 FF C1 8C 00
  can0  005   [8]  00 74 3E 4E FF C1 8C 00
  can0  005   [8]  00 75 22 1F FF C1 8C 00
  can0  005   [8]  00 75 B7 A6 FF C1 8C 00
  can0  005   [8]  00 77 C1 07 FF C1 8C 00
  can0  005   [8]  00 77 D9 C9 FF C1 8C 00
  can0  005   [8]  00 7A 1B FC FF C1 8C 00
  can0  005   [8]  00 7B 79 7F FF C1 8C 00
  can0  005   [8]  00 7A C9 7B FF C1 8C 00
  can0  005   [8]  00 7D D3 70 FF C1 8C 00
  can0  005   [8]  00 7F 2A AC FF C1 8C 00
  can0  005   [8]  00 80 2D 34 FF C1 8C 00
  can0  005   [8]  00 80 C3 5F FF C1 8C 00
  can0  005   [8]  00 82 B0 2E FF C1 8C 00
  can0  005   [8]  00 83 80 C5 FF C1 8C 00
  can0  005   [8]  00 85 1C 5B FF C1 8C 00
  can0  005   [8]  00 86 21 44 FF C1 8C 00
  can0  005   [8]  00 86 B7 81 FF C1 8C 00
  can0  005   [8]  00 87 6E 2C FF C1 8C 00
  can0  005   [8]  00 89 B5 09 FF C1 8C 00
  can0  005   [8]  00 8A C0 60 FF C1 8C 00
  can0  005   [8]  00 8B CF 83 FF C1 8C 00
  can0  005   [8]  00 8C F0 7B FF C1 8C 00
  can0  005   [8]  00 8C 37 E5 FF C1 8C 00
  can0  005   [8]  00 8E 92 73 FF C1 8C 00
  can0  005   [8]  00 90 12 17 FF C1 8C 00
  can0  005   [8]  00 8F FA D6 FF C1 8C 00
  can0  005   [8]  00 91 32 89 FF C1 8C 00
  can0  005   [8]  00 91 CF A5 FF C1 8C 00
  can0  005   [8]  00 94 E5 1E FF C1 8C 00
  can0  005   [8]  00 95 D8 BE FF C1 8C 00
  can0  005   [8]  00 97 5C C8 FF C1 8C 00
  can0  005   [8]  00 98 54 32 FF C1 8C 00
  can0  005   [8]  00 98 B2 A4 FF C1 8C 00
  can0  005   [8]  00 9A 11 76 FF C1 8C 00
  can0  005   [8]  00 9B 65 BD FF C1 8C 00
  can0  005   [8]  00 9B 63 07 FF C1 8C 00
  can0  005   [8]  00 9D 7B C9 FF C1 8C 00
  can0  005   [8]  00 9E 2F B1 FF C1 17 00
  can0  005   [8]  00 9D E1 F5 FF C1 62 00
  can0  005   [8]  00 A0 1A 87 FF C1 65 00
  can0  005   [8]  00 A1 BA 4C FF C1 65 00
  can0  005   [8]  00 A3 1B BF FF C1 65 00
  can0  005   [8]  00 A4 3F 85 FF C1 65 00
  can0  005   [8]  00 A4 F5 2B FF C1 65 00
  can0  005   [8]  00 A5 6F DF FF C1 65 00
  can0  005   [8]  00 A6 8B AF FF C1 65 00
  can0  005   [8]  00 A7 AD 14 FF C1 65 00
  can0  005   [8]  00 A9 71 D6 FF C1 DA 00
  can0  005   [8]  00 A9 0C 9B FF C1 8F 00
  can0  005   [8]  00 A9 C0 77 FF C2 00 00
  can0  005   [8]  00 AB 61 71 FF C2 B2 00
  can0  005   [8]  00 AB 68 66 FF C2 76 00
  can0  005   [8]  00 AB E4 F1 FF C4 1B 00
  can0  005   [8]  00 AD 1A 12 FF C3 20 00
  can0  005   [8]  00 AD 13 E4 FF C3 0C 00
  can0  005   [8]  00 AD 20 06 FF C3 2F 00
  can0  005   [8]  00 AD 8C AF FF C3 BE 00
  can0  005   [8]  00 AE 40 47 FF C4 08 00
  can0  005   [8]  00 AF 75 46 FF C3 25 00
  can0  005   [8]  00 B0 35 E4 FF C3 58 00
  can0  005   [8]  00 B1 64 24 FF C3 7E 00
  can0  005   [8]  00 B1 D7 B6 FF C3 F1 00
  can0  005   [8]  00 B2 7C E5 FF C4 19 00
  can0  005   [8]  00 B3 A7 0F FF C4 5E 00
  can0  005   [8]  00 B4 65 92 FF C5 96 00
  can0  005   [8]  00 B4 0E 51 FF C4 01 00
  can0  005   [8]  00 B4 04 FB FF C3 EE 00
  can0  005   [8]  00 B4 49 45 FF C3 ED 00
  can0  005   [8]  00 B3 64 6D FF C2 F1 00
  can0  005   [8]  00 B2 B7 EE FF C2 A2 00
  can0  005   [8]  00 B1 47 CA FF C3 84 00
  can0  005   [8]  00 B2 3B A7 FF C2 4D 00
  can0  005   [8]  00 B0 5E 3D FF C3 6C 00
  can0  005   [8]  00 AF BA 23 FF C3 7A 00
  can0  005   [8]  00 AE E6 12 FF C3 7B 00
  can0  005   [8]  00 AE 61 D6 FF C3 7B 00
  can0  005   [8]  00 AD 8F BC FF C3 7B 00
  can0  005   [8]  00 AE 71 EE FF C3 7B 00
  can0  005   [8]  00 AE E5 E1 FF C3 7B 00
  can0  005   [8]  00 B1 19 78 FF C3 7B 00
  can0  005   [8]  00 B2 D2 CB FF C3 7B 00
  can0  005   [8]  00 B3 73 B9 FF C2 7E 00
  can0  005   [8]  00 B4 BB D9 FF C2 4E 00
  can0  005   [8]  00 B4 B2 64 FF C2 65 00
  can0  005   [8]  00 B3 53 08 FF C2 6D 00
  can0  005   [8]  00 B3 2A F4 FF C2 69 00
  can0  005   [8]  00 A4 89 C1 FF C1 BC 00
  can0  005   [8]  00 AD A0 EF FF C2 8C 00
  can0  005   [8]  00 AD 59 FD FF C2 96 00
  can0  005   [8]  00 AC E6 9C FF C2 96 00
  can0  005   [8]  00 AC 37 3E FF C2 96 00
  can0  005   [8]  00 AC A9 1A FF C1 9A 00
  can0  005   [8]  00 AC 79 AE FF C2 66 00
  can0  005   [8]  00 AE 3D 26 FF C1 1E 00
  can0  005   [8]  00 AC 45 B6 FF C2 3B 00
  can0  005   [8]  00 AC 00 EF FF C2 49 00
  can0  005   [8]  00 AB CB 36 FF C2 4A 00
  can0  005   [8]  00 AB 96 03 FF C2 4A 00
  can0  005   [8]  00 AA 4B 08 FF C2 4A 00
  can0  005   [8]  00 A8 42 D6 FF C2 4A 00
  can0  005   [8]  00 A5 9E 7A FF C2 DD 00
  can0  005   [8]  00 A3 FC 65 FF C2 75 00
  can0  005   [8]  00 A1 55 76 FF C2 70 00
  can0  005   [8]  00 A0 43 C9 FF C2 70 00
  can0  005   [8]  00 9E F9 8A FF C2 70 00
  can0  005   [8]  00 9E EB 12 FF C0 A6 00
  can0  005   [8]  00 9F 78 98 FF C2 36 00
  can0  005   [8]  00 A1 F8 B3 FF C2 49 00
  can0  005   [8]  00 A4 71 16 FF C2 4A 00
  can0  005   [8]  00 A7 32 EC FF C3 C3 00
  can0  005   [8]  00 A9 34 61 FF C3 D0 00
  can0  005   [8]  00 AA 20 CB FF C2 DA 00
  can0  005   [8]  00 A9 80 68 FF C2 BE 00
  can0  005   [8]  00 A9 9D 6E FF C2 BC 00
  can0  005   [8]  00 A7 CA 61 FF C0 5F 00
  can0  005   [8]  00 A6 37 41 FF C0 90 00
  can0  005   [8]  00 A5 B6 B5 FF C0 B6 00
  can0  005   [8]  00 A5 1A D7 FF C0 1A 00
  can0  005   [8]  00 A4 A4 8F FF C0 E6 00
  can0  005   [8]  00 A3 F5 11 FF C1 5F 00
  can0  005   [8]  00 A4 66 EE FF C1 65 00
  can0  005   [8]  00 A4 37 82 FF C2 62 00
  can0  005   [8]  00 A4 F7 FE FF C3 D4 00
  can0  005   [8]  00 A1 A6 B4 FF C2 7A 00
  can0  005   [8]  00 A2 EE 62 FF C2 7A 00
  can0  005   [8]  00 A1 CC 32 FF C2 9C 00
  can0  005   [8]  00 9D 5E CB FF C2 4E 00
  can0  005   [8]  00 9A BB DC FF C2 24 00
  can0  005   [8]  00 9A B6 94 FF C0 80 00
  can0  005   [8]  00 95 B2 40 FF C1 E9 00
  can0  005   [8]  00 94 0C 51 FF C1 90 00
  can0  005   [8]  00 94 A4 AC FF C1 F8 00
  can0  005   [8]  00 99 8D BF FF C1 FE 00
  can0  005   [8]  00 9C 3E 7E FF C2 91 00
  can0  005   [8]  00 9F 43 EA FF C2 29 00
  can0  005   [8]  00 A2 AA AF FF C2 72 00
  can0  005   [8]  00 A3 CC A0 FF C2 4C 00
  can0  005   [8]  00 A5 33 E9 FF C2 4A 00
  can0  005   [8]  00 A4 07 6B FF C1 2F 00
  can0  005   [8]  00 A4 29 1D FF C2 07 00
  can0  005   [8]  00 A2 EF 1F FF C1 D5 00
  can0  005   [8]  00 A1 7E 84 FF C1 68 00
  can0  005   [8]  00 A0 3F 38 FF C1 D2 00
  can0  005   [8]  00 A1 A1 3C FF C1 D7 00
  can0  005   [8]  00 9F A6 68 FF C1 D8 00
  can0  005   [8]  00 A0 D4 BE FF C1 D8 00
  can0  005   [8]  00 9F FC E7 FF C1 D8 00
  can0  005   [8]  00 A1 A3 D2 FF C2 36 00
  can0  005   [8]  00 A1 41 C7 FF C2 00 00
  can0  005   [8]  00 A2 01 60 FF C1 FE 00
  can0  005   [8]  00 A1 F8 40 FF C1 FE 00
  can0  005   [8]  00 A1 64 90 FF C1 FE 00
  can0  005   [8]  00 A1 43 11 FF C1 FE 00
  can0  005   [8]  00 9F B2 F1 FF C1 A0 00
  can0  005   [8]  00 9F 71 BA FF C1 D5 00
  can0  005   [8]  00 9E 26 62 FF C1 D8 00
  can0  005   [8]  00 9C 5B 37 FF C1 D8 00
  can0  005   [8]  00 9B 4D BC FF C2 F3 00
  can0  005   [8]  00 99 CC 31 FF C2 1A 00
  can0  005   [8]  00 98 F8 69 FF C2 73 00
  can0  005   [8]  00 98 A9 02 FF C2 28 00
  can0  005   [8]  00 9A 3F CE FF C2 72 00
  can0  005   [8]  00 9B B1 92 FF C2 4C 00
  can0  005   [8]  00 9D 2A 07 FF C2 4A 00
  can0  005   [8]  00 9F 19 81 FF C2 4A 00
  can0  005   [8]  00 A2 21 AF FF C2 4A 00
  can0  005   [8]  00 A2 95 54 FF C2 4A 00
  can0  005   [8]  00 A2 A4 EB FF C2 4A 00
  can0  005   [8]  00 A3 E7 06 FF C0 F8 00
  can0  005   [8]  00 A3 11 CF FF C2 15 00
  can0  005   [8]  00 A1 B0 91 FF C2 23 00
  can0  005   [8]  00 9F F1 EE FF C1 28 00
  can0  005   [8]  00 9F 8F 94 FF C1 F3 00
  can0  005   [8]  00 9F 37 E5 FF C1 FD 00
  can0  005   [8]  00 A0 74 B9 FF C1 FE 00
  can0  005   [8]  00 A0 71 19 FF C1 FE 00
  can0  005   [8]  00 A0 C4 CD FF C1 FE 00
  can0  005   [8]  00 A1 05 6E FF C1 FE 00
  can0  005   [8]  00 A1 85 B3 FF C1 FE 00
  can0  005   [8]  00 A1 C5 13 FF C2 FA 00
  can0  005   [8]  00 A1 F5 94 FF C2 2E 00
  can0  005   [8]  00 A2 B7 72 FF C2 24 00
  can0  005   [8]  00 A2 B7 F9 FF C2 24 00
  can0  005   [8]  00 A2 39 41 FF C2 24 00
  can0  005   [8]  00 A1 E8 9E FF C1 D6 00
  can0  005   [8]  00 A0 D3 AC FF C1 FC 00
  can0  005   [8]  00 A1 B1 E7 FF C1 6A 00
  can0  005   [8]  00 A0 37 C8 FF C1 D2 00
  can0  005   [8]  00 9F 93 4E FF C1 D7 00
  can0  005   [8]  00 9E FA 05 FF C2 D4 00
  can0  005   [8]  00 9D D5 B9 FF C3 D2 00
  can0  005   [8]  00 9D 92 B0 FF C2 39 00
  can0  005   [8]  00 9C 1A 88 FF C3 EF 00
  can0  005   [8]  00 9A 01 65 FF C2 5E 00
  can0  005   [8]  00 99 E2 D8 FF C2 4B 00
  can0  005   [8]  00 9C AB A8 FF C2 4A 00
  can0  005   [8]  00 9C F4 FF FF C2 4A 00
  can0  005   [8]  00 9E F4 85 FF C2 24 00
  can0  005   [8]  00 A0 AB 19 FF C0 F8 00
  can0  005   [8]  00 A1 D7 B3 FF C1 EF 00
  can0  005   [8]  00 A2 B9 9B FF C1 27 00
  can0  005   [8]  00 A2 33 43 FF C1 FD 00
  can0  005   [8]  00 A3 7A F1 FF C1 FD 00
  can0  005   [8]  00 A3 9A 3F FF C1 FE 00
  can0  005   [8]  00 A4 38 BE FF C1 FE 00
  can0  005   [8]  00 A2 5E 97 FF C1 FE 00
  can0  005   [8]  00 A3 A6 45 FF C1 FE 00
  can0  005   [8]  00 A3 4E 4C FF C1 FE 00
  can0  005   [8]  00 A4 FD D1 FF C1 FE 00
  can0  005   [8]  00 A5 DB 77 FF C1 FE 00
  can0  005   [8]  00 A7 7E 95 FF C1 FE 00
  can0  005   [8]  00 A8 DD 71 FF C0 E3 00
  can0  005   [8]  00 AA 30 97 FF C1 BB 00
  can0  005   [8]  00 A9 F6 E3 FF C1 D6 00
  can0  005   [8]  00 AA 71 21 FF C1 D8 00
  can0  005   [8]  00 AA AE 1D FF C1 D8 00
  can0  005   [8]  00 AB 4C D8 FF C1 D8 00
  can0  005   [8]  00 AC 3F 94 FF C1 D8 00
  can0  005   [8]  00 AC 65 C1 FF C1 D8 00
  can0  005   [8]  00 AE 8A C8 FF C1 D8 00
  can0  005   [8]  00 AE 7D 7E FF C1 D8 00
  can0  005   [8]  00 B0 33 80 FF C1 D8 00
  can0  005   [8]  00 B0 98 0F FF C1 D8 00
  can0  005   [8]  00 B2 6F FD FF C1 D8 00
  can0  005   [8]  00 B4 7A 49 FF C1 D8 00
  can0  005   [8]  00 B6 73 FE FF C2 D4 00
  can0  005   [8]  00 B7 C1 D4 FF C2 08 00
  can0  005   [8]  00 BA 7C E1 FF C1 FE 00
  can0  005   [8]  00 BB 22 77 FF C1 FE 00
  can0  005   [8]  00 BC FF 8F FF C1 FE 00
  can0  005   [8]  00 BE D9 F3 FF C1 FE 00
  can0  005   [8]  00 C0 ED BE FF C1 FE 00
  can0  005   [8]  00 C1 2B 94 FF C1 FE 00
  can0  005   [8]  00 C3 6B C8 FF C1 FE 00
  can0  005   [8]  00 C4 BF E5 FF C1 FE 00
  can0  005   [8]  00 C6 2C C5 FF C1 FE 00
  can0  005   [8]  00 C7 F9 AF FF C1 FE 00
  can0  005   [8]  00 C9 F0 00 FF C1 FE 00
  can0  005   [8]  00 CA A0 2E FF C1 FE 00
  can0  005   [8]  00 CA DE 67 FF C1 FE 00
  can0  005   [8]  00 CE 4D E5 FF C1 FE 00
  can0  005   [8]  00 CE C8 11 FF C1 FE 00
  can0  005   [8]  00 CF B8 DF FF C1 FE 00
  can0  005   [8]  00 D0 E6 DA FF C1 FE 00
  can0  005   [8]  00 D2 34 13 FF C1 FE 00
  can0  005   [8]  00 D4 D6 DE FF C1 FE 00
  can0  005   [8]  00 D6 FD E9 FF C1 FE 00
  can0  005   [8]  00 D7 80 76 FF C1 FE 00
  can0  005   [8]  00 D8 71 92 FF C1 FE 00
  can0  005   [8]  00 DA E1 71 FF C1 FE 00
  can0  005   [8]  00 DC F7 C5 FF C1 FE 00
  can0  005   [8]  00 DF 2E 2B FF C1 FE 00
  can0  005   [8]  00 DF DD 6D FF C1 FE 00
  can0  005   [8]  00 E1 0C DB FF C1 FE 00
  can0  005   [8]  00 E3 81 AE FF C1 FE 00
  can0  005   [8]  00 E4 34 04 FF C3 C8 00
  can0  005   [8]  00 E4 28 17 FF C2 38 00
  can0  005   [8]  00 E5 64 09 FF C2 83 00
  can0  005   [8]  00 E4 4C 03 FF C2 4A 00
  can0  005   [8]  00 E5 47 84 FF C2 4A 00
  can0  005   [8]  00 E6 06 87 FF C2 4A 00
  can0  005   [8]  00 E7 8C 31 FF C0 80 00
  can0  005   [8]  00 E8 31 21 FF C0 46 00
  can0  005   [8]  00 E9 60 36 FF C1 E8 00
  can0  005   [8]  00 EA 02 2C FF C1 AF 00
  can0  005   [8]  00 EB 31 22 FF C1 D6 00
  can0  005   [8]  00 EB D3 18 FF C1 D8 00
  can0  005   [8]  00 ED 02 0D FF C3 2A 00
  can0  005   [8]  00 EC E1 AF FF C3 5E 00
  can0  005   [8]  00 EE 1B 3B FF C3 FD 00
  can0  005   [8]  00 EF 92 10 FF C2 5F 00
  can0  005   [8]  00 F0 70 54 FF C2 4A 00
  can0  005   [8]  00 EF 7D B5 FF C2 4A 00
  can0  005   [8]  00 F0 0F 30 FF C2 4A 00
  can0  005   [8]  00 F1 A4 3A FF C1 8B 00
  can0  005   [8]  00 F2 47 B9 FF C1 02 00
  can0  005   [8]  00 F2 50 3A FF C1 E1 00
  can0  005   [8]  00 F2 12 B3 FF C1 FC 00
  can0  005   [8]  00 F2 95 11 FF C1 01 00
  can0  005   [8]  00 F2 BA EC FF C1 CD 00
  can0  005   [8]  00 F2 97 4F FF C1 D7 00
  can0  005   [8]  00 F2 24 08 FF C1 D8 00
  can0  005   [8]  00 F0 6D 95 FF C2 36 00
  can0  005   [8]  00 F0 0B 8E FF C4 18 00
  can0  005   [8]  00 EE 5A 25 FF C3 1F 00
  can0  005   [8]  00 EB EC 01 FF C2 ED 00
  can0  005   [8]  00 E9 93 2A FF C3 97 00
  can0  005   [8]  00 E7 BB 2A FF C2 C7 00
  can0  005   [8]  00 E5 DD FB FF C2 29 00
  can0  005   [8]  00 E3 C8 BF FF C0 F1 00
  can0  005   [8]  00 E4 54 8B FF C1 C5 00
  can0  005   [8]  00 E6 35 74 FF C1 D1 00
  can0  005   [8]  00 E7 42 70 FF C1 FC 00
  can0  005   [8]  00 EA 53 53 FF C1 FE 00
  can0  005   [8]  00 EB B9 35 FF C2 FA 00
  can0  005   [8]  00 ED 58 AF FF C2 C2 00
  can0  005   [8]  00 EE 22 02 FF C3 B9 00
  can0  005   [8]  00 ED 62 88 FF C2 B5 00
  can0  005   [8]  00 EC 60 0F FF C2 98 00
  can0  005   [8]  00 EA 72 35 FF C1 9A 00
  can0  005   [8]  00 EA 00 33 FF C0 28 00
  can0  005   [8]  00 E6 AE 0B FF C0 5D 00
  can0  005   [8]  00 E5 4F 7B FF C0 B9 00
  can0  005   [8]  00 E2 0F B5 FF C0 8B 00
  can0  005   [8]  00 DF 1F 77 FF C1 6F 00
  can0  005   [8]  00 DB C3 C9 FF C3 54 00
  can0  005   [8]  00 D9 52 69 FF C2 85 00
  can0  005   [8]  00 D3 BB D2 FF C3 90 00
  can0  005   [8]  00 CF 2F 6F FF C3 C5 00
  can0  005   [8]  00 CC 31 6E FF C4 5B 00
  can0  005   [8]  00 CA 88 66 FF C2 AC 00
  can0  005   [8]  00 CA 8A 59 FF C2 97 00
  can0  005   [8]  00 CD 35 CF FF C2 96 00
  can0  005   [8]  00 D0 24 DB FF C2 96 00
  can0  005   [8]  00 D1 E2 C8 FF C0 CC 00
  can0  005   [8]  00 D5 8D DC FF C2 5C 00
  can0  005   [8]  00 D6 94 C2 FF C1 06 00
  can0  005   [8]  00 D7 D3 3B FF C0 3C 00
  can0  005   [8]  00 D6 CA 11 FF C0 1E 00
  can0  005   [8]  00 D5 BB DF FF C0 A7 00
  can0  005   [8]  00 D2 D0 44 FF C1 94 00
  can0  005   [8]  00 CF 73 FB FF C1 B0 00
  can0  005   [8]  00 CA 53 DF FF C1 B2 00
  can0  005   [8]  00 C5 6E 7D FF C3 03 00
  can0  005   [8]  00 C0 48 5F FF C2 A5 00
  can0  005   [8]  00 B8 A4 36 FF C4 2E 00
  can0  005   [8]  00 B3 C5 92 FF C3 5E 00
  can0  005   [8]  00 B1 1D 92 FF C3 96 00
  can0  005   [8]  00 B0 A7 2A FF C2 B3 00
  can0  005   [8]  00 B2 CE A8 FF C2 98 00
  can0  005   [8]  00 B6 5B 2C FF C2 96 00
  can0  005   [8]  00 BA 2E 5C FF C1 9A 00
  can0  005   [8]  00 BC 7B FD FF C2 66 00
  can0  005   [8]  00 BE 62 DB FF C2 22 00
  can0  005   [8]  00 BD F1 65 FF C1 D4 00
  can0  005   [8]  00 BE 3D DD FF C1 61 00
  can0  005   [8]  00 BB 9D D5 FF C0 2C 00
  can0  005   [8]  00 B7 61 86 FF C1 C3 00
  can0  005   [8]  00 B3 8E 87 FF C1 D7 00
  can0  005   [8]  00 AD 79 79 FF C1 D8 00
  can0  005   [8]  00 A1 71 AA FF C1 D8 00
  can0  005   [8]  00 A0 52 9F FF C2 6B 00
  can0  005   [8]  00 9D E2 18 FF C2 91 00
  can0  005   [8]  00 A4 3B AE FF C3 2B 00
  can0  005   [8]  00 A3 E0 63 FF C3 51 00
  can0  005   [8]  00 AF 1A 0C FF C2 7B 00
  can0  005   [8]  00 B2 1D 67 FF C2 71 00
  can0  005   [8]  00 B3 95 56 FF C2 70 00
  can0  005   [8]  00 B4 DE AE FF C1 B1 00
  can0  005   [8]  00 B3 5F 70 FF C0 B3 00
  can0  005   [8]  00 B1 BD 75 FF C0 13 00
  can0  005   [8]  00 AE BE FA FF C1 C2 00
  can0  005   [8]  00 AB 37 68 FF C0 DA 00
  can0  005   [8]  00 A8 7D 44 FF C1 A7 00
  can0  005   [8]  00 A5 1F 4F FF C1 B1 00
  can0  005   [8]  00 A0 9A 11 FF C1 B2 00
  can0  005   [8]  00 9E 0A B9 FF C1 B2 00
  can0  005   [8]  00 9B 04 36 FF C1 B2 00
  can0  005   [8]  00 99 CA 8E FF C1 B2 00
  can0  005   [8]  00 98 ED DD FF C1 B2 00
  can0  005   [8]  00 99 14 F1 FF C3 7B 00
  can0  005   [8]  00 9D 28 69 FF C2 E8 00
  can0  005   [8]  00 A0 2B 71 FF C4 31 00
  can0  005   [8]  00 A4 C5 2B FF C4 F4 00
  can0  005   [8]  00 A7 A2 18 FF C3 6B 00
  can0  005   [8]  00 A9 25 51 FF C3 5D 00
  can0  005   [8]  00 AB 0E 89 FF C3 0C 00
  can0  005   [8]  00 AB E1 12 FF C0 E1 00
  can0  005   [8]  00 A9 55 BD FF C0 8B 00
  can0  005   [8]  00 A8 32 86 FF BF 89 00
  can0  005   [8]  00 A6 E2 15 FF BF 7D 00
  can0  005   [8]  00 A5 A6 A7 FF C1 72 00
  can0  005   [8]  00 A4 B6 DB FF C1 8A 00
  can0  005   [8]  00 A5 DE F1 FF C2 4A 00
  can0  005   [8]  00 A6 24 D4 FF C3 59 00
  can0  005   [8]  00 A8 26 CE FF C2 83 00
  can0  005   [8]  00 A9 5F 77 FF C2 28 00
  can0  005   [8]  00 AC 61 52 FF C2 24 00
  can0  005   [8]  00 AC 4F 7E FF C1 B0 00
  can0  005   [8]  00 AD 85 4C FF C1 9C 00
  can0  005   [8]  00 AE 82 D0 FF C1 16 00
  can0  005   [8]  00 AE C7 1F FF C1 AA 00
  can0  005   [8]  00 AE E8 6A FF C2 0F 00
  can0  005   [8]  00 AF 25 EA FF C3 43 00
  can0  005   [8]  00 AF 3C 37 FF C2 42 00
  can0  005   [8]  00 AF DA 69 FF C2 25 00
  can0  005   [8]  00 B0 0F BD FF C2 24 00
  can0  005   [8]  00 B0 D1 97 FF C0 84 00
  can0  005   [8]  00 B1 76 98 FF C1 08 00
  can0  005   [8]  00 B4 73 55 FF C1 A9 00
  can0  005   [8]  00 B4 5D EE FF C1 D7 00
  can0  005   [8]  00 B6 F9 90 FF C2 FA 00
  can0  005   [8]  00 B9 3A F1 FF C3 88 00
  can0  005   [8]  00 BA D7 6A FF C4 07 00
  can0  005   [8]  00 BD 79 1D FF C3 D4 00
  can0  005   [8]  00 BE 9D 33 FF C1 9B 00
  can0  005   [8]  00 C0 3B D1 FF C0 A0 00
  can0  005   [8]  00 C0 97 3E FF BF D3 00
  can0  005   [8]  00 C1 D6 C2 FF C0 6D 00
  can0  005   [8]  00 C1 58 A5 FF C1 A2 00
  can0  005   [8]  00 C1 97 61 FF C1 B1 00
  can0  005   [8]  00 C3 4E A9 FF C3 7B 00
  can0  005   [8]  00 C4 E2 6C FF C2 E8 00
  can0  005   [8]  00 C6 59 1B FF C2 9C 00
  can0  005   [8]  00 C7 A0 CA FF C2 9C 00
  can0  005   [8]  00 C9 95 63 FF C3 F4 00
  can0  005   [8]  00 CA 9D 53 FF C2 5F 00
  can0  005   [8]  00 CC 03 BE FF C2 4A 00
  can0  005   [8]  00 CD 4C 77 FF C2 4A 00
  can0  005   [8]  00 CE 94 25 FF C2 20 00
  can0  005   [8]  00 CF DB D3 FF C2 24 00
  can0  005   [8]  00 D1 23 81 FF C2 24 00
  can0  005   [8]  00 D2 6B 2F FF C2 24 00
  can0  005   [8]  00 D3 B2 DD FF C2 24 00
  can0  005   [8]  00 D4 96 8F FF C2 24 00
  can0  005   [8]  00 D5 9D 3C FF C1 09 00
  can0  005   [8]  00 D4 EF E3 FF C1 E1 00
  can0  005   [8]  00 D6 51 E0 FF C1 FC 00
  can0  005   [8]  00 D6 81 6C FF C1 FE 00
  can0  005   [8]  00 D8 A2 F0 FF C1 FE 00
  can0  005   [8]  00 D8 EA F8 FF C3 C8 00
  can0  005   [8]  00 D9 8C 29 FF C2 38 00
  can0  005   [8]  00 DA 6C 6A FF C2 B8 00
  can0  005   [8]  00 DA 8D F0 FF C2 4F 00
  can0  005   [8]  00 DB 0B 55 FF C2 4A 00
  can0  005   [8]  00 DC 11 A4 FF C2 4A 00
  can0  005   [8]  00 DB 74 07 FF C2 4A 00
  can0  005   [8]  00 DB A8 D5 FF C2 4A 00
  can0  005   [8]  00 DB 9A 10 FF C0 80 00
  can0  005   [8]  00 DA 5B 4C FF C2 10 00
  can0  005   [8]  00 DA C5 C0 FF C2 23 00
  can0  005   [8]  00 D9 F6 58 FF C2 24 00
  can0  005   [8]  00 D8 6D 5C FF C2 24 00
  can0  005   [8]  00 D8 EF A0 FF C2 24 00
  can0  005   [8]  00 D8 22 59 FF C2 72 00
  can0  005   [8]  00 D8 4B E5 FF C2 4C 00
  can0  005   [8]  00 D9 34 6E FF C2 4A 00
  can0  005   [8]  00 DA 2E AA FF C3 9C 00
  can0  005   [8]  00 DB AE C4 FF C2 7F 00
  can0  005   [8]  00 DC CC AF FF C2 71 00
  can0  005   [8]  00 DD 20 BA FF C2 70 00
  can0  005   [8]  00 DC 87 86 FF C1 55 00
  can0  005   [8]  00 DD 67 3D FF C2 2E 00
  can0  005   [8]  00 DD 77 46 FF C1 D4 00
  can0  005   [8]  00 DD 0D 37 FF C0 56 00
  can0  005   [8]  00 DB 27 42 FF C1 E9 00
  can0  005   [8]  00 DC 43 F7 FF C1 FD 00
  can0  005   [8]  00 DB 27 E6 FF C1 FE 00
  can0  005   [8]  00 DC 58 3B FF C1 02 00
  can0  005   [8]  00 DB 30 2E FF C1 CD 00
  can0  005   [8]  00 DC 53 77 FF C1 D7 00
  can0  005   [8]  00 DD 17 4F FF C1 D8 00
  can0  005   [8]  00 DB A7 C8 FF C1 D8 00
  can0  005   [8]  00 DB 39 41 FF C1 D8 00
  can0  005   [8]  00 DA AA 06 FF C2 36 00
  can0  005   [8]  00 D9 3B 94 FF C2 C0 00
  can0  005   [8]  00 D5 05 27 FF C2 82 00
  can0  005   [8]  00 D2 00 D9 FF C2 4D 00
  can0  005   [8]  00 CF EC 46 FF C2 4A 00
  can0  005   [8]  00 D1 33 F4 FF C1 8B 00
  can0  005   [8]  00 CB 56 E7 FF C0 CB 00
  can0  005   [8]  00 CB 27 E6 FF C1 EF 00
  can0  005   [8]  00 CC 6F 94 FF C1 FD 00
  can0  005   [8]  00 CA D4 D3 FF C1 FD 00
  can0  005   [8]  00 CF CE 39 FF C3 C8 00
  can0  005   [8]  00 D0 0B 49 FF C3 EE 00
  can0  005   [8]  00 D2 BD E3 FF C3 B0 00
  can0  005   [8]  00 D6 D3 13 FF C2 7F 00
  can0  005   [8]  00 D7 21 ED FF C2 71 00
  can0  005   [8]  00 D7 F7 57 FF C2 71 00
  can0  005   [8]  00 D7 74 A3 FF C2 4A 00

